
T1270 000:621 SEGGER J-Link V4.35b (beta) Log File (0000ms, 0617ms total)
T1270 000:621 DLL Compiled: Sep  2 2011 18:34:46 (0000ms, 0617ms total)
T1270 000:621 Logging started @ 2012-06-25 10:55 (0000ms, 0617ms total)
T1270 000:621 JLINK_SetWarnOutHandler(...) (0000ms, 0617ms total)
T1270 000:621 JLINK_OpenEx(...)
Firmware: J-Link ARM V8 compiled Sep  2 2011 17:54:36
Hardware: V8.00
S/N: 20100214
Feature(s): RDI,FlashDL,FlashBP,JFlash,GDBFull  returns O.K. (0287ms, 0617ms total)
T1270 000:908 JLINK_SetErrorOutHandler(...) (0000ms, 0904ms total)
T1270 000:910 JLINK_ExecCommand("Device = STM32F103ZE", ...)
                JLINK_ExecCommand("map ram 0x20000000 - 0x2000FFFF", ...)  returns 0x00 (0000ms, 0000ms total)
                JLINK_AddMirrorAreaEx(Addr = 0x00000000, Size = 0x00000000) (0000ms, 0000ms total)
              Device "STM32F103ZE" selected (512 KB flash, 64 KB RAM).  returns 0x00 (0009ms, 0904ms total)
T1270 000:920 JLINK_ExecCommand("ProjectFile = "D:\kid's doc\research\»úÆ÷ÈË\³ÌÐò\M - Semiauto - Blue - Stable\Project\JLinkSettings.ini"", ...)  returns 0x00 (0001ms, 0913ms total)
T1270 000:926 JLINK_ExecCommand("DisableConnectionTimeout", ...)  returns 0x00 (0000ms, 0915ms total)
T1270 000:927 JLINK_TIF_Select(JLINKARM_TIF_SWD)  returns 0x00 (0006ms, 0915ms total)
T1270 000:933 JLINK_SetSpeed(2000) (0001ms, 0921ms total)
T1270 000:934 JLINK_GetHardwareVersion()  returns 0x13880 (0000ms, 0922ms total)
T1270 000:934 JLINK_GetDLLVersion()  returns 43502 (0000ms, 0922ms total)
T1270 000:935 JLINK_GetFirmwareString(...) (0000ms, 0923ms total)
T1270 000:947 JLINK_GetDLLVersion()  returns 43502 (0000ms, 0923ms total)
T1270 000:947 JLINK_GetCompileDateTime() (0000ms, 0923ms total)
T1270 000:950 JLINK_GetFirmwareString(...) (0000ms, 0923ms total)
T1270 000:953 JLINK_GetHardwareVersion()  returns 0x13880 (0000ms, 0923ms total)
T1270 000:962 JLINK_GetId() >0x108 TIF>Found SWD-DP with ID 0x1BA01477 >0x33 TIF> >0x33 TIF> >0x35 TIF> >0x33 TIF> >0x33 TIF> >0x35 TIF> >0x33 TIF> >0x33 TIF> >0x35 TIF> >0x33 TIF> >0x33 TIF> >0x35 TIF> >0x33 TIF> >0x33 TIF> >0x35 TIF> >0x35 TIF> >0x35 TIF> >0x35 TIF> >0x35 TIF> >0x33 TIF> >0x33 TIF> >0x35 TIF> >0x35 TIF> >0x35 TIF> >0x33 TIF> >0x33 TIF> >0x33 TIF>TPIU fitted.ETM fitted. >0x35 TIF> >0x33 TIF> >0x33 TIF> >0x35 TIF> >0x33 TIF> >0x33 TIF>  FPUnit: 6 code (BP) slots and 2 literal slots
 >0x35 TIF> >0x33 TIF> >0x33 TIF> >0x35 TIF> >0x33 TIF> >0x33 TIF> >0x35 TIF> >0x33 TIF> >0x33 TIF>Found Cortex-M3 r1p1, Little endian. >0x33 TIF>  returns 0x1BA01477 (0064ms, 0923ms total)
T1270 001:027 JLINK_GetDebugInfo(0x100) -- Value=0xE00FF003  returns 0x00 (0001ms, 0987ms total)
T1270 001:032 JLINK_ReadMem (0xE00FFFF0, 0x0010 Bytes, ...) -- CPU is running -- CPU_ReadMem(16 bytes @ 0xE00FFFF0) -- Data:  0D 00 00 00 10 00 00 00 05 00 00 00 B1 00 00 00  returns 0x00 (0002ms, 0988ms total)
T1270 001:034 JLINK_ReadMem (0xE00FFFD0, 0x0020 Bytes, ...) -- CPU is running -- CPU_ReadMem(32 bytes @ 0xE00FFFD0) -- Data:  00 00 00 00 00 00 00 00 00 00 00 00 00 00 00 00 ...  returns 0x00 (0002ms, 0990ms total)
T1270 001:037 JLINK_ReadMem (0xE00FF000, 0x0018 Bytes, ...) -- CPU is running -- CPU_ReadMem(24 bytes @ 0xE00FF000) -- Data:  03 F0 F0 FF 03 20 F0 FF 03 30 F0 FF 03 10 F0 FF ...  returns 0x00 (0001ms, 0992ms total)
T1270 001:039 JLINK_ReadMemU32(0xE000ED00, 0x0001 Items, ...) -- CPU is running -- CPU_ReadMem(4 bytes @ 0xE000ED00) -- Data:  31 C2 1F 41  returns 0x01 (0000ms, 0993ms total)
T1270 001:039 JLINK_SetResetType(JLINKARM_RESET_TYPE_NORMAL)  returns JLINKARM_RESET_TYPE_NORMAL (0000ms, 0993ms total)
T1270 001:039 JLINK_Reset() >0x108 TIF>Found SWD-DP with ID 0x1BA01477 >0x33 TIF> >0x33 TIF> >0x35 TIF> >0x33 TIF> >0x35 TIF> >0x33 TIF> >0x33 TIF> >0x35 TIF> >0x33 TIF> >0x33 TIF> >0x35 TIF> >0x33 TIF> >0x33 TIF> >0x35 TIF> >0x33 TIF> >0x33 TIF> >0x35 TIF> >0x35 TIF> >0x35 TIF> >0x35 TIF> >0x35 TIF> >0x33 TIF> >0x33 TIF> >0x35 TIF> >0x33 TIF> >0x33 TIF> >0x33 TIF>TPIU fitted.ETM fitted. >0x35 TIF> >0x33 TIF> >0x33 TIF> >0x35 TIF> >0x33 TIF> >0x33 TIF>  FPUnit: 6 code (BP) slots and 2 literal slots
 >0x35 TIF> >0x33 TIF> >0x33 TIF> >0x35 TIF> >0x33 TIF> >0x33 TIF> >0x35 TIF> >0x33 TIF> >0x33 TIF>Found Cortex-M3 r1p1, Little endian. (0398ms, 0993ms total)
T1270 001:437 JLINK_Halt()  returns 0x00 (0001ms, 1391ms total)
T1270 001:438 JLINK_IsHalted()  returns TRUE (0000ms, 1392ms total)
T1270 001:438 JLINK_ReadMemU32(0xE000EDF0, 0x0001 Items, ...) -- CPU_ReadMem(4 bytes @ 0xE000EDF0) -- Data:  03 00 03 00  returns 0x01 (0001ms, 1392ms total)
T1270 001:439 JLINK_WriteU32(0xE000EDF0, 0xA05F0003) -- CPU_WriteMem(4 bytes @ 0xE000EDF0)  returns 0x00 (0001ms, 1393ms total)
T1270 001:440 JLINK_WriteU32(0xE000EDFC, 0x01000000) -- CPU_WriteMem(4 bytes @ 0xE000EDFC)  returns 0x00 (0001ms, 1394ms total)
T1270 001:441 JLINK_ReadMemU32(0xE0002000, 0x0001 Items, ...) -- CPU_ReadMem(4 bytes @ 0xE0002000) -- Data:  60 02 00 00  returns 0x01 (0001ms, 1395ms total)
T1270 001:443 JLINK_ReadMemU32(0xE0001000, 0x0001 Items, ...) -- CPU_ReadMem(4 bytes @ 0xE0001000) -- Data:  00 00 00 40  returns 0x01 (0000ms, 1397ms total)
T1270 001:443 JLINK_WriteU32(0xE0001028, 0x00000000) -- CPU_WriteMem(4 bytes @ 0xE0001028)  returns 0x00 (0001ms, 1397ms total)
T1270 001:444 JLINK_WriteU32(0xE0001038, 0x00000000) -- CPU_WriteMem(4 bytes @ 0xE0001038)  returns 0x00 (0001ms, 1398ms total)
T1270 001:445 JLINK_WriteU32(0xE0001048, 0x00000000) -- CPU_WriteMem(4 bytes @ 0xE0001048)  returns 0x00 (0001ms, 1399ms total)
T1270 001:446 JLINK_WriteU32(0xE0001058, 0x00000000) -- CPU_WriteMem(4 bytes @ 0xE0001058)  returns 0x00 (0001ms, 1400ms total)
T1270 001:456 JLINK_GetHWStatus(...)  returns 0x00 (0001ms, 1401ms total)
T1270 001:464 JLINK_GetNumBPUnits(Type = 0xFFFFFF00)  returns 0x06 (0000ms, 1402ms total)
T1270 001:465 JLINK_GetNumBPUnits(Type = 0xF0)  returns 0x2000 (0000ms, 1402ms total)
T1270 001:465 JLINK_GetNumWPUnits()  returns 0x04 (0000ms, 1402ms total)
T1270 001:472 JLINK_GetSpeed()  returns 0x7D0 (0000ms, 1402ms total)
T1270 001:476 JLINK_ReadMemU32(0xE000E004, 0x0001 Items, ...) -- CPU_ReadMem(4 bytes @ 0xE000E004) -- Data:  01 00 00 00  returns 0x01 (0002ms, 1402ms total)
T1270 001:478 JLINK_ReadMemU32(0xE000E004, 0x0001 Items, ...) -- CPU_ReadMem(4 bytes @ 0xE000E004) -- Data:  01 00 00 00  returns 0x01 (0001ms, 1404ms total)
T1270 001:479 JLINK_WriteMem(0xE0001000, 0x001C Bytes, ...) -- Data:  01 00 00 00 00 00 00 00 00 00 00 00 00 00 00 00 ... -- CPU_WriteMem(28 bytes @ 0xE0001000)  returns 0x1C (0001ms, 1405ms total)
T1270 001:480 JLINK_ReadMem (0xE0001000, 0x001C Bytes, ...) -- CPU_ReadMem(28 bytes @ 0xE0001000) -- Data:  01 00 00 40 00 00 00 00 00 00 00 00 00 00 00 00 ...  returns 0x00 (0001ms, 1406ms total)
T1270 001:481 JLINK_Halt()  returns 0x00 (0000ms, 1407ms total)
T1270 001:481 JLINK_IsHalted()  returns TRUE (0000ms, 1407ms total)
T1270 001:487 JLINK_WriteMem(0x20000000, 0x0164 Bytes, ...) -- Data:  00 BE 0A E0 0D 78 2D 06 68 40 08 24 40 00 00 D3 ... -- CPU_WriteMem(356 bytes @ 0x20000000)  returns 0x164 (0004ms, 1407ms total)
T1270 001:492 JLINK_WriteReg(R0, 0x08000000)  returns 0x00 (0000ms, 1411ms total)
T1270 001:492 JLINK_WriteReg(R1, 0x007A1200)  returns 0x00 (0000ms, 1411ms total)
T1270 001:492 JLINK_WriteReg(R2, 0x00000001)  returns 0x00 (0000ms, 1411ms total)
T1270 001:492 JLINK_WriteReg(R3, 0x00000000)  returns 0x00 (0000ms, 1411ms total)
T1270 001:492 JLINK_WriteReg(R4, 0x00000000)  returns 0x00 (0000ms, 1411ms total)
T1270 001:492 JLINK_WriteReg(R5, 0x00000000)  returns 0x00 (0000ms, 1411ms total)
T1270 001:492 JLINK_WriteReg(R6, 0x00000000)  returns 0x00 (0000ms, 1411ms total)
T1270 001:492 JLINK_WriteReg(R7, 0x00000000)  returns 0x00 (0000ms, 1411ms total)
T1270 001:492 JLINK_WriteReg(R8, 0x00000000)  returns 0x00 (0000ms, 1411ms total)
T1270 001:492 JLINK_WriteReg(R9, 0x20000160)  returns 0x00 (0000ms, 1411ms total)
T1270 001:492 JLINK_WriteReg(R10, 0x00000000)  returns 0x00 (0000ms, 1411ms total)
T1270 001:492 JLINK_WriteReg(R11, 0x00000000)  returns 0x00 (0000ms, 1411ms total)
T1270 001:492 JLINK_WriteReg(R12, 0x00000000)  returns 0x00 (0000ms, 1411ms total)
T1270 001:492 JLINK_WriteReg(R13, 0x20000800)  returns 0x00 (0000ms, 1411ms total)
T1270 001:492 JLINK_WriteReg(R14, 0x20000001)  returns 0x00 (0000ms, 1411ms total)
T1270 001:492 JLINK_WriteReg(R15, 0x20000038)  returns 0x00 (0000ms, 1411ms total)
T1270 001:492 JLINK_WriteReg(XPSR, 0x01000000)  returns 0x00 (0000ms, 1411ms total)
T1270 001:492 JLINK_WriteReg(MSP, 0x20000800)  returns 0x00 (0001ms, 1411ms total)
T1270 001:493 JLINK_WriteReg(PSP, 0x20000800)  returns 0x00 (0000ms, 1412ms total)
T1270 001:493 JLINK_WriteReg(BASEPRI, 0x00000000)  returns 0x00 (0000ms, 1412ms total)
T1270 001:493 JLINK_WriteReg(CONTROL, 0x00000000)  returns 0x00 (0000ms, 1412ms total)
T1270 001:493 JLINK_WriteReg(FAULTMASK, 0x00000000)  returns 0x00 (0000ms, 1412ms total)
T1270 001:493 JLINK_WriteReg(BASEPRI_MAX, 0x00000000)  returns 0x00 (0000ms, 1412ms total)
T1270 001:493 JLINK_SetBPEx(Addr = 0x20000000, Type = 0xFFFFFFF2) -- CPU_ReadMem(2 bytes @ 0x20000000)  returns 0x00000001 (0001ms, 1412ms total)
T1270 001:494 JLINK_Go() -- CPU_WriteMem(2 bytes @ 0x20000000) -- CPU_WriteMem(4 bytes @ 0xE0002008) -- CPU_WriteMem(4 bytes @ 0xE000200C) -- CPU_WriteMem(4 bytes @ 0xE0002010) -- CPU_WriteMem(4 bytes @ 0xE0002014) -- CPU_WriteMem(4 bytes @ 0xE0002018) -- CPU_WriteMem(4 bytes @ 0xE000201C) (0011ms, 1413ms total)
T1270 001:505 JLINK_IsHalted() -- CPU_ReadMem(2 bytes @ 0x20000000)  returns TRUE (0007ms, 1424ms total)
T1270 001:512 JLINK_ReadReg(R15)  returns 0x20000000 (0001ms, 1424ms total)
T1270 001:513 JLINK_ClrBPEx(BPHandle = 0x00000001)  returns 0x00 (0000ms, 1425ms total)
T1270 001:513 JLINK_ReadReg(R0)  returns 0x00000000 (0000ms, 1425ms total)
T1270 001:513 JLINK_WriteReg(R0, 0x08000000)  returns 0x00 (0000ms, 1425ms total)
T1270 001:513 JLINK_WriteReg(R1, 0x007A1200)  returns 0x00 (0000ms, 1425ms total)
T1270 001:513 JLINK_WriteReg(R2, 0x00000001)  returns 0x00 (0001ms, 1425ms total)
T1270 001:514 JLINK_WriteReg(R3, 0x00000000)  returns 0x00 (0000ms, 1426ms total)
T1270 001:514 JLINK_WriteReg(R4, 0x00000000)  returns 0x00 (0000ms, 1426ms total)
T1270 001:514 JLINK_WriteReg(R5, 0x00000000)  returns 0x00 (0000ms, 1426ms total)
T1270 001:514 JLINK_WriteReg(R6, 0x00000000)  returns 0x00 (0000ms, 1426ms total)
T1270 001:514 JLINK_WriteReg(R7, 0x00000000)  returns 0x00 (0000ms, 1426ms total)
T1270 001:514 JLINK_WriteReg(R8, 0x00000000)  returns 0x00 (0000ms, 1426ms total)
T1270 001:514 JLINK_WriteReg(R9, 0x20000160)  returns 0x00 (0000ms, 1426ms total)
T1270 001:514 JLINK_WriteReg(R10, 0x00000000)  returns 0x00 (0000ms, 1426ms total)
T1270 001:514 JLINK_WriteReg(R11, 0x00000000)  returns 0x00 (0000ms, 1426ms total)
T1270 001:514 JLINK_WriteReg(R12, 0x00000000)  returns 0x00 (0000ms, 1426ms total)
T1270 001:514 JLINK_WriteReg(R13, 0x20000800)  returns 0x00 (0000ms, 1426ms total)
T1270 001:514 JLINK_WriteReg(R14, 0x20000001)  returns 0x00 (0000ms, 1426ms total)
T1270 001:514 JLINK_WriteReg(R15, 0x2000007C)  returns 0x00 (0000ms, 1426ms total)
T1270 001:514 JLINK_WriteReg(XPSR, 0x01000000)  returns 0x00 (0000ms, 1426ms total)
T1270 001:514 JLINK_WriteReg(MSP, 0x20000800)  returns 0x00 (0000ms, 1426ms total)
T1270 001:514 JLINK_WriteReg(PSP, 0x20000800)  returns 0x00 (0000ms, 1426ms total)
T1270 001:515 JLINK_WriteReg(BASEPRI, 0x00000000)  returns 0x00 (0000ms, 1427ms total)
T1270 001:515 JLINK_WriteReg(CONTROL, 0x00000000)  returns 0x00 (0000ms, 1427ms total)
T1270 001:515 JLINK_WriteReg(FAULTMASK, 0x00000000)  returns 0x00 (0000ms, 1427ms total)
T1270 001:515 JLINK_WriteReg(BASEPRI_MAX, 0x00000000)  returns 0x00 (0000ms, 1427ms total)
T1270 001:515 JLINK_SetBPEx(Addr = 0x20000000, Type = 0xFFFFFFF2)  returns 0x00000002 (0000ms, 1427ms total)
T1270 001:515 JLINK_Go() -- CPU_WriteMem(4 bytes @ 0xE0002008) -- CPU_WriteMem(4 bytes @ 0xE000200C) -- CPU_WriteMem(4 bytes @ 0xE0002010) -- CPU_WriteMem(4 bytes @ 0xE0002014) -- CPU_WriteMem(4 bytes @ 0xE0002018) -- CPU_WriteMem(4 bytes @ 0xE000201C) (0009ms, 1427ms total)
T1270 001:524 JLINK_IsHalted()  returns FALSE (0001ms, 1436ms total)
T1270 001:575 JLINK_IsHalted() -- CPU_ReadMem(2 bytes @ 0x20000000)  returns TRUE (0007ms, 1436ms total)
T1270 001:582 JLINK_ReadReg(R15)  returns 0x20000000 (0000ms, 1436ms total)
T1270 001:582 JLINK_ClrBPEx(BPHandle = 0x00000002)  returns 0x00 (0000ms, 1436ms total)
T1270 001:582 JLINK_ReadReg(R0)  returns 0x00000000 (0000ms, 1436ms total)
T1270 001:634 JLINK_WriteReg(R0, 0x00000001)  returns 0x00 (0000ms, 1436ms total)
T1270 001:634 JLINK_WriteReg(R1, 0x007A1200)  returns 0x00 (0000ms, 1436ms total)
T1270 001:634 JLINK_WriteReg(R2, 0x00000001)  returns 0x00 (0000ms, 1436ms total)
T1270 001:634 JLINK_WriteReg(R3, 0x00000000)  returns 0x00 (0000ms, 1436ms total)
T1270 001:634 JLINK_WriteReg(R4, 0x00000000)  returns 0x00 (0000ms, 1436ms total)
T1270 001:634 JLINK_WriteReg(R5, 0x00000000)  returns 0x00 (0000ms, 1436ms total)
T1270 001:634 JLINK_WriteReg(R6, 0x00000000)  returns 0x00 (0000ms, 1436ms total)
T1270 001:634 JLINK_WriteReg(R7, 0x00000000)  returns 0x00 (0001ms, 1436ms total)
T1270 001:635 JLINK_WriteReg(R8, 0x00000000)  returns 0x00 (0000ms, 1437ms total)
T1270 001:635 JLINK_WriteReg(R9, 0x20000160)  returns 0x00 (0000ms, 1437ms total)
T1270 001:635 JLINK_WriteReg(R10, 0x00000000)  returns 0x00 (0000ms, 1437ms total)
T1270 001:635 JLINK_WriteReg(R11, 0x00000000)  returns 0x00 (0000ms, 1437ms total)
T1270 001:635 JLINK_WriteReg(R12, 0x00000000)  returns 0x00 (0000ms, 1437ms total)
T1270 001:635 JLINK_WriteReg(R13, 0x20000800)  returns 0x00 (0000ms, 1437ms total)
T1270 001:635 JLINK_WriteReg(R14, 0x20000001)  returns 0x00 (0000ms, 1437ms total)
T1270 001:635 JLINK_WriteReg(R15, 0x2000006A)  returns 0x00 (0000ms, 1437ms total)
T1270 001:635 JLINK_WriteReg(XPSR, 0x01000000)  returns 0x00 (0000ms, 1437ms total)
T1270 001:635 JLINK_WriteReg(MSP, 0x20000800)  returns 0x00 (0000ms, 1437ms total)
T1270 001:635 JLINK_WriteReg(PSP, 0x20000800)  returns 0x00 (0000ms, 1437ms total)
T1270 001:635 JLINK_WriteReg(BASEPRI, 0x00000000)  returns 0x00 (0000ms, 1437ms total)
T1270 001:635 JLINK_WriteReg(CONTROL, 0x00000000)  returns 0x00 (0000ms, 1437ms total)
T1270 001:635 JLINK_WriteReg(FAULTMASK, 0x00000000)  returns 0x00 (0000ms, 1437ms total)
T1270 001:635 JLINK_WriteReg(BASEPRI_MAX, 0x00000000)  returns 0x00 (0000ms, 1437ms total)
T1270 001:635 JLINK_SetBPEx(Addr = 0x20000000, Type = 0xFFFFFFF2)  returns 0x00000003 (0000ms, 1437ms total)
T1270 001:635 JLINK_Go() -- CPU_WriteMem(4 bytes @ 0xE0002008) -- CPU_WriteMem(4 bytes @ 0xE000200C) -- CPU_WriteMem(4 bytes @ 0xE0002010) -- CPU_WriteMem(4 bytes @ 0xE0002014) -- CPU_WriteMem(4 bytes @ 0xE0002018) -- CPU_WriteMem(4 bytes @ 0xE000201C) (0010ms, 1437ms total)
T1270 001:645 JLINK_IsHalted() -- CPU_ReadMem(2 bytes @ 0x20000000)  returns TRUE (0007ms, 1447ms total)
T1270 001:652 JLINK_ReadReg(R15)  returns 0x20000000 (0000ms, 1447ms total)
T1270 001:652 JLINK_ClrBPEx(BPHandle = 0x00000003)  returns 0x00 (0000ms, 1447ms total)
T1270 001:652 JLINK_ReadReg(R0)  returns 0x00000000 (0000ms, 1447ms total)
T1270 001:660 JLINK_WriteMem(0x20000000, 0x0164 Bytes, ...) -- Data:  00 BE 0A E0 0D 78 2D 06 68 40 08 24 40 00 00 D3 ... -- CPU_WriteMem(356 bytes @ 0x20000000)  returns 0x164 (0006ms, 1447ms total)
T1270 001:666 JLINK_WriteReg(R0, 0x08000000)  returns 0x00 (0001ms, 1453ms total)
T1270 001:667 JLINK_WriteReg(R1, 0x007A1200)  returns 0x00 (0000ms, 1454ms total)
T1270 001:667 JLINK_WriteReg(R2, 0x00000002)  returns 0x00 (0000ms, 1454ms total)
T1270 001:667 JLINK_WriteReg(R3, 0x00000000)  returns 0x00 (0000ms, 1454ms total)
T1270 001:667 JLINK_WriteReg(R4, 0x00000000)  returns 0x00 (0000ms, 1454ms total)
T1270 001:667 JLINK_WriteReg(R5, 0x00000000)  returns 0x00 (0000ms, 1454ms total)
T1270 001:667 JLINK_WriteReg(R6, 0x00000000)  returns 0x00 (0000ms, 1454ms total)
T1270 001:667 JLINK_WriteReg(R7, 0x00000000)  returns 0x00 (0000ms, 1454ms total)
T1270 001:667 JLINK_WriteReg(R8, 0x00000000)  returns 0x00 (0000ms, 1454ms total)
T1270 001:667 JLINK_WriteReg(R9, 0x20000160)  returns 0x00 (0000ms, 1454ms total)
T1270 001:667 JLINK_WriteReg(R10, 0x00000000)  returns 0x00 (0000ms, 1454ms total)
T1270 001:667 JLINK_WriteReg(R11, 0x00000000)  returns 0x00 (0000ms, 1454ms total)
T1270 001:667 JLINK_WriteReg(R12, 0x00000000)  returns 0x00 (0000ms, 1454ms total)
T1270 001:667 JLINK_WriteReg(R13, 0x20000800)  returns 0x00 (0000ms, 1454ms total)
T1270 001:667 JLINK_WriteReg(R14, 0x20000001)  returns 0x00 (0000ms, 1454ms total)
T1270 001:667 JLINK_WriteReg(R15, 0x20000038)  returns 0x00 (0000ms, 1454ms total)
T1270 001:667 JLINK_WriteReg(XPSR, 0x01000000)  returns 0x00 (0001ms, 1454ms total)
T1270 001:668 JLINK_WriteReg(MSP, 0x20000800)  returns 0x00 (0000ms, 1455ms total)
T1270 001:668 JLINK_WriteReg(PSP, 0x20000800)  returns 0x00 (0000ms, 1455ms total)
T1270 001:668 JLINK_WriteReg(BASEPRI, 0x00000000)  returns 0x00 (0000ms, 1455ms total)
T1270 001:668 JLINK_WriteReg(CONTROL, 0x00000000)  returns 0x00 (0000ms, 1455ms total)
T1270 001:668 JLINK_WriteReg(FAULTMASK, 0x00000000)  returns 0x00 (0000ms, 1455ms total)
T1270 001:668 JLINK_WriteReg(BASEPRI_MAX, 0x00000000)  returns 0x00 (0000ms, 1455ms total)
T1270 001:668 JLINK_SetBPEx(Addr = 0x20000000, Type = 0xFFFFFFF2) -- CPU_ReadMem(2 bytes @ 0x20000000)  returns 0x00000004 (0001ms, 1455ms total)
T1270 001:669 JLINK_Go() -- CPU_WriteMem(2 bytes @ 0x20000000) -- CPU_WriteMem(4 bytes @ 0xE0002008) -- CPU_WriteMem(4 bytes @ 0xE000200C) -- CPU_WriteMem(4 bytes @ 0xE0002010) -- CPU_WriteMem(4 bytes @ 0xE0002014) -- CPU_WriteMem(4 bytes @ 0xE0002018) -- CPU_WriteMem(4 bytes @ 0xE000201C) (0010ms, 1456ms total)
T1270 001:679 JLINK_IsHalted() -- CPU_ReadMem(2 bytes @ 0x20000000)  returns TRUE (0007ms, 1466ms total)
T1270 001:686 JLINK_ReadReg(R15)  returns 0x20000000 (0000ms, 1466ms total)
T1270 001:686 JLINK_ClrBPEx(BPHandle = 0x00000004)  returns 0x00 (0000ms, 1466ms total)
T1270 001:686 JLINK_ReadReg(R0)  returns 0x00000000 (0000ms, 1466ms total)
T1270 001:687 JLINK_WriteMem(0x20000164, 0x0400 Bytes, ...) -- Data:  48 0A 00 20 45 01 00 08 4B 21 00 08 51 1B 00 08 ... -- CPU_WriteMem(1024 bytes @ 0x20000164)  returns 0x400 (0012ms, 1466ms total)
T1270 001:699 JLINK_WriteReg(R0, 0x08000000)  returns 0x00 (0001ms, 1478ms total)
T1270 001:700 JLINK_WriteReg(R1, 0x00000400)  returns 0x00 (0000ms, 1479ms total)
T1270 001:700 JLINK_WriteReg(R2, 0x20000164)  returns 0x00 (0000ms, 1479ms total)
T1270 001:700 JLINK_WriteReg(R3, 0x00000000)  returns 0x00 (0000ms, 1479ms total)
T1270 001:700 JLINK_WriteReg(R4, 0x00000000)  returns 0x00 (0000ms, 1479ms total)
T1270 001:700 JLINK_WriteReg(R5, 0x00000000)  returns 0x00 (0000ms, 1479ms total)
T1270 001:700 JLINK_WriteReg(R6, 0x00000000)  returns 0x00 (0000ms, 1479ms total)
T1270 001:700 JLINK_WriteReg(R7, 0x00000000)  returns 0x00 (0000ms, 1479ms total)
T1270 001:700 JLINK_WriteReg(R8, 0x00000000)  returns 0x00 (0000ms, 1479ms total)
T1270 001:700 JLINK_WriteReg(R9, 0x20000160)  returns 0x00 (0000ms, 1479ms total)
T1270 001:700 JLINK_WriteReg(R10, 0x00000000)  returns 0x00 (0000ms, 1479ms total)
T1270 001:700 JLINK_WriteReg(R11, 0x00000000)  returns 0x00 (0000ms, 1479ms total)
T1270 001:700 JLINK_WriteReg(R12, 0x00000000)  returns 0x00 (0000ms, 1479ms total)
T1270 001:700 JLINK_WriteReg(R13, 0x20000800)  returns 0x00 (0000ms, 1479ms total)
T1270 001:700 JLINK_WriteReg(R14, 0x20000001)  returns 0x00 (0000ms, 1479ms total)
T1270 001:700 JLINK_WriteReg(R15, 0x200000F4)  returns 0x00 (0000ms, 1479ms total)
T1270 001:700 JLINK_WriteReg(XPSR, 0x01000000)  returns 0x00 (0000ms, 1479ms total)
T1270 001:700 JLINK_WriteReg(MSP, 0x20000800)  returns 0x00 (0000ms, 1479ms total)
T1270 001:700 JLINK_WriteReg(PSP, 0x20000800)  returns 0x00 (0000ms, 1479ms total)
T1270 001:700 JLINK_WriteReg(BASEPRI, 0x00000000)  returns 0x00 (0000ms, 1479ms total)
T1270 001:701 JLINK_WriteReg(CONTROL, 0x00000000)  returns 0x00 (0000ms, 1480ms total)
T1270 001:701 JLINK_WriteReg(FAULTMASK, 0x00000000)  returns 0x00 (0000ms, 1480ms total)
T1270 001:701 JLINK_WriteReg(BASEPRI_MAX, 0x00000000)  returns 0x00 (0000ms, 1480ms total)
T1270 001:701 JLINK_SetBPEx(Addr = 0x20000000, Type = 0xFFFFFFF2)  returns 0x00000005 (0000ms, 1480ms total)
T1270 001:701 JLINK_Go() -- CPU_WriteMem(4 bytes @ 0xE0002008) -- CPU_WriteMem(4 bytes @ 0xE000200C) -- CPU_WriteMem(4 bytes @ 0xE0002010) -- CPU_WriteMem(4 bytes @ 0xE0002014) -- CPU_WriteMem(4 bytes @ 0xE0002018) -- CPU_WriteMem(4 bytes @ 0xE000201C) (0009ms, 1480ms total)
T1270 001:710 JLINK_IsHalted()  returns FALSE (0001ms, 1489ms total)
T1270 001:761 JLINK_IsHalted() -- CPU_ReadMem(2 bytes @ 0x20000000)  returns TRUE (0007ms, 1489ms total)
T1270 001:768 JLINK_ReadReg(R15)  returns 0x20000000 (0001ms, 1489ms total)
T1270 001:769 JLINK_ClrBPEx(BPHandle = 0x00000005)  returns 0x00 (0000ms, 1490ms total)
T1270 001:769 JLINK_ReadReg(R0)  returns 0x00000000 (0000ms, 1490ms total)
T1270 001:770 JLINK_WriteMem(0x20000164, 0x0400 Bytes, ...) -- Data:  05 53 80 1A 61 EB 03 01 80 18 41 F5 80 11 49 08 ... -- CPU_WriteMem(1024 bytes @ 0x20000164)  returns 0x400 (0011ms, 1490ms total)
T1270 001:781 JLINK_WriteReg(R0, 0x08000400)  returns 0x00 (0000ms, 1501ms total)
T1270 001:781 JLINK_WriteReg(R1, 0x00000400)  returns 0x00 (0000ms, 1501ms total)
T1270 001:781 JLINK_WriteReg(R2, 0x20000164)  returns 0x00 (0001ms, 1501ms total)
T1270 001:782 JLINK_WriteReg(R3, 0x00000000)  returns 0x00 (0000ms, 1502ms total)
T1270 001:782 JLINK_WriteReg(R4, 0x00000000)  returns 0x00 (0000ms, 1502ms total)
T1270 001:782 JLINK_WriteReg(R5, 0x00000000)  returns 0x00 (0000ms, 1502ms total)
T1270 001:782 JLINK_WriteReg(R6, 0x00000000)  returns 0x00 (0000ms, 1502ms total)
T1270 001:782 JLINK_WriteReg(R7, 0x00000000)  returns 0x00 (0000ms, 1502ms total)
T1270 001:782 JLINK_WriteReg(R8, 0x00000000)  returns 0x00 (0000ms, 1502ms total)
T1270 001:782 JLINK_WriteReg(R9, 0x20000160)  returns 0x00 (0000ms, 1502ms total)
T1270 001:782 JLINK_WriteReg(R10, 0x00000000)  returns 0x00 (0000ms, 1502ms total)
T1270 001:782 JLINK_WriteReg(R11, 0x00000000)  returns 0x00 (0000ms, 1502ms total)
T1270 001:782 JLINK_WriteReg(R12, 0x00000000)  returns 0x00 (0000ms, 1502ms total)
T1270 001:782 JLINK_WriteReg(R13, 0x20000800)  returns 0x00 (0000ms, 1502ms total)
T1270 001:782 JLINK_WriteReg(R14, 0x20000001)  returns 0x00 (0000ms, 1502ms total)
T1270 001:782 JLINK_WriteReg(R15, 0x200000F4)  returns 0x00 (0000ms, 1502ms total)
T1270 001:782 JLINK_WriteReg(XPSR, 0x01000000)  returns 0x00 (0000ms, 1502ms total)
T1270 001:782 JLINK_WriteReg(MSP, 0x20000800)  returns 0x00 (0000ms, 1502ms total)
T1270 001:782 JLINK_WriteReg(PSP, 0x20000800)  returns 0x00 (0000ms, 1502ms total)
T1270 001:783 JLINK_WriteReg(BASEPRI, 0x00000000)  returns 0x00 (0000ms, 1503ms total)
T1270 001:783 JLINK_WriteReg(CONTROL, 0x00000000)  returns 0x00 (0000ms, 1503ms total)
T1270 001:783 JLINK_WriteReg(FAULTMASK, 0x00000000)  returns 0x00 (0000ms, 1503ms total)
T1270 001:783 JLINK_WriteReg(BASEPRI_MAX, 0x00000000)  returns 0x00 (0000ms, 1503ms total)
T1270 001:783 JLINK_SetBPEx(Addr = 0x20000000, Type = 0xFFFFFFF2)  returns 0x00000006 (0000ms, 1503ms total)
T1270 001:783 JLINK_Go() -- CPU_WriteMem(4 bytes @ 0xE0002008) -- CPU_WriteMem(4 bytes @ 0xE000200C) -- CPU_WriteMem(4 bytes @ 0xE0002010) -- CPU_WriteMem(4 bytes @ 0xE0002014) -- CPU_WriteMem(4 bytes @ 0xE0002018) -- CPU_WriteMem(4 bytes @ 0xE000201C) (0009ms, 1503ms total)
T1270 001:792 JLINK_IsHalted()  returns FALSE (0001ms, 1512ms total)
T1270 001:843 JLINK_IsHalted() -- CPU_ReadMem(2 bytes @ 0x20000000)  returns TRUE (0007ms, 1512ms total)
T1270 001:850 JLINK_ReadReg(R15)  returns 0x20000000 (0000ms, 1512ms total)
T1270 001:851 JLINK_ClrBPEx(BPHandle = 0x00000006)  returns 0x00 (0000ms, 1513ms total)
T1270 001:851 JLINK_ReadReg(R0)  returns 0x00000000 (0000ms, 1513ms total)
T1270 001:852 JLINK_WriteMem(0x20000164, 0x0400 Bytes, ...) -- Data:  01 04 04 BF 10 BC 70 47 49 B1 CC F1 20 04 21 FA ... -- CPU_WriteMem(1024 bytes @ 0x20000164)  returns 0x400 (0011ms, 1513ms total)
T1270 001:863 JLINK_WriteReg(R0, 0x08000800)  returns 0x00 (0001ms, 1524ms total)
T1270 001:864 JLINK_WriteReg(R1, 0x00000400)  returns 0x00 (0000ms, 1525ms total)
T1270 001:864 JLINK_WriteReg(R2, 0x20000164)  returns 0x00 (0000ms, 1525ms total)
T1270 001:864 JLINK_WriteReg(R3, 0x00000000)  returns 0x00 (0000ms, 1525ms total)
T1270 001:864 JLINK_WriteReg(R4, 0x00000000)  returns 0x00 (0000ms, 1525ms total)
T1270 001:864 JLINK_WriteReg(R5, 0x00000000)  returns 0x00 (0000ms, 1525ms total)
T1270 001:864 JLINK_WriteReg(R6, 0x00000000)  returns 0x00 (0000ms, 1525ms total)
T1270 001:864 JLINK_WriteReg(R7, 0x00000000)  returns 0x00 (0000ms, 1525ms total)
T1270 001:864 JLINK_WriteReg(R8, 0x00000000)  returns 0x00 (0000ms, 1525ms total)
T1270 001:864 JLINK_WriteReg(R9, 0x20000160)  returns 0x00 (0000ms, 1525ms total)
T1270 001:864 JLINK_WriteReg(R10, 0x00000000)  returns 0x00 (0000ms, 1525ms total)
T1270 001:864 JLINK_WriteReg(R11, 0x00000000)  returns 0x00 (0000ms, 1525ms total)
T1270 001:864 JLINK_WriteReg(R12, 0x00000000)  returns 0x00 (0000ms, 1525ms total)
T1270 001:864 JLINK_WriteReg(R13, 0x20000800)  returns 0x00 (0000ms, 1525ms total)
T1270 001:864 JLINK_WriteReg(R14, 0x20000001)  returns 0x00 (0000ms, 1525ms total)
T1270 001:864 JLINK_WriteReg(R15, 0x200000F4)  returns 0x00 (0000ms, 1525ms total)
T1270 001:864 JLINK_WriteReg(XPSR, 0x01000000)  returns 0x00 (0000ms, 1525ms total)
T1270 001:864 JLINK_WriteReg(MSP, 0x20000800)  returns 0x00 (0000ms, 1525ms total)
T1270 001:864 JLINK_WriteReg(PSP, 0x20000800)  returns 0x00 (0000ms, 1525ms total)
T1270 001:864 JLINK_WriteReg(BASEPRI, 0x00000000)  returns 0x00 (0001ms, 1525ms total)
T1270 001:865 JLINK_WriteReg(CONTROL, 0x00000000)  returns 0x00 (0000ms, 1526ms total)
T1270 001:865 JLINK_WriteReg(FAULTMASK, 0x00000000)  returns 0x00 (0000ms, 1526ms total)
T1270 001:865 JLINK_WriteReg(BASEPRI_MAX, 0x00000000)  returns 0x00 (0000ms, 1526ms total)
T1270 001:865 JLINK_SetBPEx(Addr = 0x20000000, Type = 0xFFFFFFF2)  returns 0x00000007 (0000ms, 1526ms total)
T1270 001:865 JLINK_Go() -- CPU_WriteMem(4 bytes @ 0xE0002008) -- CPU_WriteMem(4 bytes @ 0xE000200C) -- CPU_WriteMem(4 bytes @ 0xE0002010) -- CPU_WriteMem(4 bytes @ 0xE0002014) -- CPU_WriteMem(4 bytes @ 0xE0002018) -- CPU_WriteMem(4 bytes @ 0xE000201C) (0009ms, 1526ms total)
T1270 001:874 JLINK_IsHalted()  returns FALSE (0001ms, 1535ms total)
T1270 001:925 JLINK_IsHalted() -- CPU_ReadMem(2 bytes @ 0x20000000)  returns TRUE (0007ms, 1535ms total)
T1270 001:933 JLINK_ReadReg(R15)  returns 0x20000000 (0000ms, 1535ms total)
T1270 001:933 JLINK_ClrBPEx(BPHandle = 0x00000007)  returns 0x00 (0000ms, 1535ms total)
T1270 001:933 JLINK_ReadReg(R0)  returns 0x00000000 (0000ms, 1535ms total)
T1270 001:934 JLINK_WriteMem(0x20000164, 0x0400 Bytes, ...) -- Data:  FF F7 D4 FE 80 46 E8 79 7F 38 FF F7 17 FD FF F7 ... -- CPU_WriteMem(1024 bytes @ 0x20000164)  returns 0x400 (0011ms, 1535ms total)
T1270 001:945 JLINK_WriteReg(R0, 0x08000C00)  returns 0x00 (0000ms, 1546ms total)
T1270 001:946 JLINK_WriteReg(R1, 0x00000400)  returns 0x00 (0000ms, 1547ms total)
T1270 001:946 JLINK_WriteReg(R2, 0x20000164)  returns 0x00 (0000ms, 1547ms total)
T1270 001:946 JLINK_WriteReg(R3, 0x00000000)  returns 0x00 (0000ms, 1547ms total)
T1270 001:946 JLINK_WriteReg(R4, 0x00000000)  returns 0x00 (0000ms, 1547ms total)
T1270 001:946 JLINK_WriteReg(R5, 0x00000000)  returns 0x00 (0000ms, 1547ms total)
T1270 001:946 JLINK_WriteReg(R6, 0x00000000)  returns 0x00 (0000ms, 1547ms total)
T1270 001:946 JLINK_WriteReg(R7, 0x00000000)  returns 0x00 (0000ms, 1547ms total)
T1270 001:946 JLINK_WriteReg(R8, 0x00000000)  returns 0x00 (0000ms, 1547ms total)
T1270 001:946 JLINK_WriteReg(R9, 0x20000160)  returns 0x00 (0000ms, 1547ms total)
T1270 001:946 JLINK_WriteReg(R10, 0x00000000)  returns 0x00 (0000ms, 1547ms total)
T1270 001:946 JLINK_WriteReg(R11, 0x00000000)  returns 0x00 (0000ms, 1547ms total)
T1270 001:946 JLINK_WriteReg(R12, 0x00000000)  returns 0x00 (0000ms, 1547ms total)
T1270 001:946 JLINK_WriteReg(R13, 0x20000800)  returns 0x00 (0000ms, 1547ms total)
T1270 001:946 JLINK_WriteReg(R14, 0x20000001)  returns 0x00 (0000ms, 1547ms total)
T1270 001:946 JLINK_WriteReg(R15, 0x200000F4)  returns 0x00 (0000ms, 1547ms total)
T1270 001:946 JLINK_WriteReg(XPSR, 0x01000000)  returns 0x00 (0000ms, 1547ms total)
T1270 001:946 JLINK_WriteReg(MSP, 0x20000800)  returns 0x00 (0000ms, 1547ms total)
T1270 001:946 JLINK_WriteReg(PSP, 0x20000800)  returns 0x00 (0000ms, 1547ms total)
T1270 001:946 JLINK_WriteReg(BASEPRI, 0x00000000)  returns 0x00 (0000ms, 1547ms total)
T1270 001:947 JLINK_WriteReg(CONTROL, 0x00000000)  returns 0x00 (0000ms, 1547ms total)
T1270 001:947 JLINK_WriteReg(FAULTMASK, 0x00000000)  returns 0x00 (0000ms, 1547ms total)
T1270 001:947 JLINK_WriteReg(BASEPRI_MAX, 0x00000000)  returns 0x00 (0000ms, 1547ms total)
T1270 001:947 JLINK_SetBPEx(Addr = 0x20000000, Type = 0xFFFFFFF2)  returns 0x00000008 (0000ms, 1547ms total)
T1270 001:947 JLINK_Go() -- CPU_WriteMem(4 bytes @ 0xE0002008) -- CPU_WriteMem(4 bytes @ 0xE000200C) -- CPU_WriteMem(4 bytes @ 0xE0002010) -- CPU_WriteMem(4 bytes @ 0xE0002014) -- CPU_WriteMem(4 bytes @ 0xE0002018) -- CPU_WriteMem(4 bytes @ 0xE000201C) (0009ms, 1547ms total)
T1270 001:956 JLINK_IsHalted()  returns FALSE (0001ms, 1556ms total)
T1270 002:007 JLINK_IsHalted() -- CPU_ReadMem(2 bytes @ 0x20000000)  returns TRUE (0006ms, 1556ms total)
T1270 002:013 JLINK_ReadReg(R15)  returns 0x20000000 (0000ms, 1556ms total)
T1270 002:013 JLINK_ClrBPEx(BPHandle = 0x00000008)  returns 0x00 (0001ms, 1556ms total)
T1270 002:014 JLINK_ReadReg(R0)  returns 0x00000000 (0000ms, 1557ms total)
T1270 002:015 JLINK_WriteMem(0x20000164, 0x0400 Bytes, ...) -- Data:  22 43 8C 69 22 43 CC 69 22 43 4C 6A 22 43 8C 6A ... -- CPU_WriteMem(1024 bytes @ 0x20000164)  returns 0x400 (0011ms, 1557ms total)
T1270 002:026 JLINK_WriteReg(R0, 0x08001000)  returns 0x00 (0000ms, 1568ms total)
T1270 002:027 JLINK_WriteReg(R1, 0x00000400)  returns 0x00 (0000ms, 1568ms total)
T1270 002:027 JLINK_WriteReg(R2, 0x20000164)  returns 0x00 (0000ms, 1568ms total)
T1270 002:027 JLINK_WriteReg(R3, 0x00000000)  returns 0x00 (0000ms, 1568ms total)
T1270 002:027 JLINK_WriteReg(R4, 0x00000000)  returns 0x00 (0000ms, 1568ms total)
T1270 002:027 JLINK_WriteReg(R5, 0x00000000)  returns 0x00 (0000ms, 1568ms total)
T1270 002:027 JLINK_WriteReg(R6, 0x00000000)  returns 0x00 (0000ms, 1568ms total)
T1270 002:027 JLINK_WriteReg(R7, 0x00000000)  returns 0x00 (0000ms, 1568ms total)
T1270 002:027 JLINK_WriteReg(R8, 0x00000000)  returns 0x00 (0000ms, 1568ms total)
T1270 002:027 JLINK_WriteReg(R9, 0x20000160)  returns 0x00 (0000ms, 1568ms total)
T1270 002:027 JLINK_WriteReg(R10, 0x00000000)  returns 0x00 (0000ms, 1568ms total)
T1270 002:027 JLINK_WriteReg(R11, 0x00000000)  returns 0x00 (0000ms, 1568ms total)
T1270 002:027 JLINK_WriteReg(R12, 0x00000000)  returns 0x00 (0000ms, 1568ms total)
T1270 002:027 JLINK_WriteReg(R13, 0x20000800)  returns 0x00 (0000ms, 1568ms total)
T1270 002:027 JLINK_WriteReg(R14, 0x20000001)  returns 0x00 (0000ms, 1568ms total)
T1270 002:027 JLINK_WriteReg(R15, 0x200000F4)  returns 0x00 (0000ms, 1568ms total)
T1270 002:027 JLINK_WriteReg(XPSR, 0x01000000)  returns 0x00 (0000ms, 1568ms total)
T1270 002:027 JLINK_WriteReg(MSP, 0x20000800)  returns 0x00 (0000ms, 1568ms total)
T1270 002:027 JLINK_WriteReg(PSP, 0x20000800)  returns 0x00 (0000ms, 1568ms total)
T1270 002:028 JLINK_WriteReg(BASEPRI, 0x00000000)  returns 0x00 (0000ms, 1569ms total)
T1270 002:028 JLINK_WriteReg(CONTROL, 0x00000000)  returns 0x00 (0000ms, 1569ms total)
T1270 002:028 JLINK_WriteReg(FAULTMASK, 0x00000000)  returns 0x00 (0000ms, 1569ms total)
T1270 002:028 JLINK_WriteReg(BASEPRI_MAX, 0x00000000)  returns 0x00 (0000ms, 1569ms total)
T1270 002:028 JLINK_SetBPEx(Addr = 0x20000000, Type = 0xFFFFFFF2)  returns 0x00000009 (0001ms, 1569ms total)
T1270 002:029 JLINK_Go() -- CPU_WriteMem(4 bytes @ 0xE0002008) -- CPU_WriteMem(4 bytes @ 0xE000200C) -- CPU_WriteMem(4 bytes @ 0xE0002010) -- CPU_WriteMem(4 bytes @ 0xE0002014) -- CPU_WriteMem(4 bytes @ 0xE0002018) -- CPU_WriteMem(4 bytes @ 0xE000201C) (0008ms, 1570ms total)
T1270 002:037 JLINK_IsHalted()  returns FALSE (0001ms, 1578ms total)
T1270 002:088 JLINK_IsHalted() -- CPU_ReadMem(2 bytes @ 0x20000000)  returns TRUE (0007ms, 1578ms total)
T1270 002:096 JLINK_ReadReg(R15)  returns 0x20000000 (0000ms, 1578ms total)
T1270 002:096 JLINK_ClrBPEx(BPHandle = 0x00000009)  returns 0x00 (0000ms, 1578ms total)
T1270 002:096 JLINK_ReadReg(R0)  returns 0x00000000 (0000ms, 1578ms total)
T1270 002:097 JLINK_WriteMem(0x20000164, 0x0400 Bytes, ...) -- Data:  03 F0 60 F8 01 21 20 46 03 F0 5C F8 07 B0 30 BD ... -- CPU_WriteMem(1024 bytes @ 0x20000164)  returns 0x400 (0011ms, 1578ms total)
T1270 002:108 JLINK_WriteReg(R0, 0x08001400)  returns 0x00 (0000ms, 1589ms total)
T1270 002:109 JLINK_WriteReg(R1, 0x00000400)  returns 0x00 (0000ms, 1589ms total)
T1270 002:109 JLINK_WriteReg(R2, 0x20000164)  returns 0x00 (0000ms, 1589ms total)
T1270 002:109 JLINK_WriteReg(R3, 0x00000000)  returns 0x00 (0000ms, 1589ms total)
T1270 002:109 JLINK_WriteReg(R4, 0x00000000)  returns 0x00 (0000ms, 1589ms total)
T1270 002:109 JLINK_WriteReg(R5, 0x00000000)  returns 0x00 (0000ms, 1589ms total)
T1270 002:109 JLINK_WriteReg(R6, 0x00000000)  returns 0x00 (0000ms, 1589ms total)
T1270 002:109 JLINK_WriteReg(R7, 0x00000000)  returns 0x00 (0000ms, 1589ms total)
T1270 002:109 JLINK_WriteReg(R8, 0x00000000)  returns 0x00 (0000ms, 1589ms total)
T1270 002:109 JLINK_WriteReg(R9, 0x20000160)  returns 0x00 (0000ms, 1589ms total)
T1270 002:109 JLINK_WriteReg(R10, 0x00000000)  returns 0x00 (0000ms, 1589ms total)
T1270 002:109 JLINK_WriteReg(R11, 0x00000000)  returns 0x00 (0000ms, 1589ms total)
T1270 002:109 JLINK_WriteReg(R12, 0x00000000)  returns 0x00 (0000ms, 1589ms total)
T1270 002:109 JLINK_WriteReg(R13, 0x20000800)  returns 0x00 (0000ms, 1589ms total)
T1270 002:109 JLINK_WriteReg(R14, 0x20000001)  returns 0x00 (0000ms, 1589ms total)
T1270 002:109 JLINK_WriteReg(R15, 0x200000F4)  returns 0x00 (0000ms, 1589ms total)
T1270 002:109 JLINK_WriteReg(XPSR, 0x01000000)  returns 0x00 (0001ms, 1589ms total)
T1270 002:110 JLINK_WriteReg(MSP, 0x20000800)  returns 0x00 (0000ms, 1590ms total)
T1270 002:110 JLINK_WriteReg(PSP, 0x20000800)  returns 0x00 (0000ms, 1590ms total)
T1270 002:110 JLINK_WriteReg(BASEPRI, 0x00000000)  returns 0x00 (0000ms, 1590ms total)
T1270 002:110 JLINK_WriteReg(CONTROL, 0x00000000)  returns 0x00 (0000ms, 1590ms total)
T1270 002:110 JLINK_WriteReg(FAULTMASK, 0x00000000)  returns 0x00 (0000ms, 1590ms total)
T1270 002:110 JLINK_WriteReg(BASEPRI_MAX, 0x00000000)  returns 0x00 (0000ms, 1590ms total)
T1270 002:110 JLINK_SetBPEx(Addr = 0x20000000, Type = 0xFFFFFFF2)  returns 0x0000000A (0000ms, 1590ms total)
T1270 002:110 JLINK_Go() -- CPU_WriteMem(4 bytes @ 0xE0002008) -- CPU_WriteMem(4 bytes @ 0xE000200C) -- CPU_WriteMem(4 bytes @ 0xE0002010) -- CPU_WriteMem(4 bytes @ 0xE0002014) -- CPU_WriteMem(4 bytes @ 0xE0002018) -- CPU_WriteMem(4 bytes @ 0xE000201C) (0009ms, 1590ms total)
T1270 002:119 JLINK_IsHalted()  returns FALSE (0001ms, 1599ms total)
T1270 002:170 JLINK_IsHalted() -- CPU_ReadMem(2 bytes @ 0x20000000)  returns TRUE (0007ms, 1599ms total)
T1270 002:177 JLINK_ReadReg(R15)  returns 0x20000000 (0000ms, 1599ms total)
T1270 002:177 JLINK_ClrBPEx(BPHandle = 0x0000000A)  returns 0x00 (0001ms, 1599ms total)
T1270 002:178 JLINK_ReadReg(R0)  returns 0x00000000 (0000ms, 1600ms total)
T1270 002:179 JLINK_WriteMem(0x20000164, 0x0400 Bytes, ...) -- Data:  9A 46 04 91 FE F7 28 FF DF F8 60 82 06 46 0F 46 ... -- CPU_WriteMem(1024 bytes @ 0x20000164)  returns 0x400 (0011ms, 1600ms total)
T1270 002:190 JLINK_WriteReg(R0, 0x08001800)  returns 0x00 (0000ms, 1611ms total)
T1270 002:190 JLINK_WriteReg(R1, 0x00000400)  returns 0x00 (0001ms, 1611ms total)
T1270 002:191 JLINK_WriteReg(R2, 0x20000164)  returns 0x00 (0000ms, 1612ms total)
T1270 002:191 JLINK_WriteReg(R3, 0x00000000)  returns 0x00 (0000ms, 1612ms total)
T1270 002:191 JLINK_WriteReg(R4, 0x00000000)  returns 0x00 (0000ms, 1612ms total)
T1270 002:191 JLINK_WriteReg(R5, 0x00000000)  returns 0x00 (0000ms, 1612ms total)
T1270 002:191 JLINK_WriteReg(R6, 0x00000000)  returns 0x00 (0000ms, 1612ms total)
T1270 002:191 JLINK_WriteReg(R7, 0x00000000)  returns 0x00 (0000ms, 1612ms total)
T1270 002:191 JLINK_WriteReg(R8, 0x00000000)  returns 0x00 (0000ms, 1612ms total)
T1270 002:191 JLINK_WriteReg(R9, 0x20000160)  returns 0x00 (0000ms, 1612ms total)
T1270 002:191 JLINK_WriteReg(R10, 0x00000000)  returns 0x00 (0000ms, 1612ms total)
T1270 002:191 JLINK_WriteReg(R11, 0x00000000)  returns 0x00 (0000ms, 1612ms total)
T1270 002:191 JLINK_WriteReg(R12, 0x00000000)  returns 0x00 (0000ms, 1612ms total)
T1270 002:191 JLINK_WriteReg(R13, 0x20000800)  returns 0x00 (0000ms, 1612ms total)
T1270 002:191 JLINK_WriteReg(R14, 0x20000001)  returns 0x00 (0000ms, 1612ms total)
T1270 002:191 JLINK_WriteReg(R15, 0x200000F4)  returns 0x00 (0000ms, 1612ms total)
T1270 002:191 JLINK_WriteReg(XPSR, 0x01000000)  returns 0x00 (0000ms, 1612ms total)
T1270 002:191 JLINK_WriteReg(MSP, 0x20000800)  returns 0x00 (0000ms, 1612ms total)
T1270 002:191 JLINK_WriteReg(PSP, 0x20000800)  returns 0x00 (0000ms, 1612ms total)
T1270 002:191 JLINK_WriteReg(BASEPRI, 0x00000000)  returns 0x00 (0000ms, 1612ms total)
T1270 002:191 JLINK_WriteReg(CONTROL, 0x00000000)  returns 0x00 (0001ms, 1612ms total)
T1270 002:192 JLINK_WriteReg(FAULTMASK, 0x00000000)  returns 0x00 (0000ms, 1613ms total)
T1270 002:192 JLINK_WriteReg(BASEPRI_MAX, 0x00000000)  returns 0x00 (0000ms, 1613ms total)
T1270 002:192 JLINK_SetBPEx(Addr = 0x20000000, Type = 0xFFFFFFF2)  returns 0x0000000B (0000ms, 1613ms total)
T1270 002:192 JLINK_Go() -- CPU_WriteMem(4 bytes @ 0xE0002008) -- CPU_WriteMem(4 bytes @ 0xE000200C) -- CPU_WriteMem(4 bytes @ 0xE0002010) -- CPU_WriteMem(4 bytes @ 0xE0002014) -- CPU_WriteMem(4 bytes @ 0xE0002018) -- CPU_WriteMem(4 bytes @ 0xE000201C) (0009ms, 1613ms total)
T1270 002:201 JLINK_IsHalted()  returns FALSE (0001ms, 1622ms total)
T1270 002:252 JLINK_IsHalted() -- CPU_ReadMem(2 bytes @ 0x20000000)  returns TRUE (0007ms, 1622ms total)
T1270 002:259 JLINK_ReadReg(R15)  returns 0x20000000 (0000ms, 1622ms total)
T1270 002:259 JLINK_ClrBPEx(BPHandle = 0x0000000B)  returns 0x00 (0001ms, 1622ms total)
T1270 002:260 JLINK_ReadReg(R0)  returns 0x00000000 (0000ms, 1623ms total)
T1270 002:261 JLINK_WriteMem(0x20000164, 0x0400 Bytes, ...) -- Data:  9E FC 0D B0 30 BD 00 00 00 38 01 40 34 06 00 20 ... -- CPU_WriteMem(1024 bytes @ 0x20000164)  returns 0x400 (0011ms, 1623ms total)
T1270 002:272 JLINK_WriteReg(R0, 0x08001C00)  returns 0x00 (0000ms, 1634ms total)
T1270 002:272 JLINK_WriteReg(R1, 0x00000400)  returns 0x00 (0001ms, 1634ms total)
T1270 002:273 JLINK_WriteReg(R2, 0x20000164)  returns 0x00 (0000ms, 1635ms total)
T1270 002:273 JLINK_WriteReg(R3, 0x00000000)  returns 0x00 (0000ms, 1635ms total)
T1270 002:273 JLINK_WriteReg(R4, 0x00000000)  returns 0x00 (0000ms, 1635ms total)
T1270 002:273 JLINK_WriteReg(R5, 0x00000000)  returns 0x00 (0000ms, 1635ms total)
T1270 002:273 JLINK_WriteReg(R6, 0x00000000)  returns 0x00 (0000ms, 1635ms total)
T1270 002:273 JLINK_WriteReg(R7, 0x00000000)  returns 0x00 (0000ms, 1635ms total)
T1270 002:273 JLINK_WriteReg(R8, 0x00000000)  returns 0x00 (0000ms, 1635ms total)
T1270 002:273 JLINK_WriteReg(R9, 0x20000160)  returns 0x00 (0000ms, 1635ms total)
T1270 002:273 JLINK_WriteReg(R10, 0x00000000)  returns 0x00 (0000ms, 1635ms total)
T1270 002:273 JLINK_WriteReg(R11, 0x00000000)  returns 0x00 (0000ms, 1635ms total)
T1270 002:273 JLINK_WriteReg(R12, 0x00000000)  returns 0x00 (0000ms, 1635ms total)
T1270 002:273 JLINK_WriteReg(R13, 0x20000800)  returns 0x00 (0000ms, 1635ms total)
T1270 002:273 JLINK_WriteReg(R14, 0x20000001)  returns 0x00 (0000ms, 1635ms total)
T1270 002:273 JLINK_WriteReg(R15, 0x200000F4)  returns 0x00 (0000ms, 1635ms total)
T1270 002:273 JLINK_WriteReg(XPSR, 0x01000000)  returns 0x00 (0000ms, 1635ms total)
T1270 002:273 JLINK_WriteReg(MSP, 0x20000800)  returns 0x00 (0000ms, 1635ms total)
T1270 002:273 JLINK_WriteReg(PSP, 0x20000800)  returns 0x00 (0000ms, 1635ms total)
T1270 002:273 JLINK_WriteReg(BASEPRI, 0x00000000)  returns 0x00 (0000ms, 1635ms total)
T1270 002:273 JLINK_WriteReg(CONTROL, 0x00000000)  returns 0x00 (0000ms, 1635ms total)
T1270 002:274 JLINK_WriteReg(FAULTMASK, 0x00000000)  returns 0x00 (0000ms, 1636ms total)
T1270 002:274 JLINK_WriteReg(BASEPRI_MAX, 0x00000000)  returns 0x00 (0000ms, 1636ms total)
T1270 002:274 JLINK_SetBPEx(Addr = 0x20000000, Type = 0xFFFFFFF2)  returns 0x0000000C (0000ms, 1636ms total)
T1270 002:274 JLINK_Go() -- CPU_WriteMem(4 bytes @ 0xE0002008) -- CPU_WriteMem(4 bytes @ 0xE000200C) -- CPU_WriteMem(4 bytes @ 0xE0002010) -- CPU_WriteMem(4 bytes @ 0xE0002014) -- CPU_WriteMem(4 bytes @ 0xE0002018) -- CPU_WriteMem(4 bytes @ 0xE000201C) (0009ms, 1636ms total)
T1270 002:283 JLINK_IsHalted()  returns FALSE (0001ms, 1645ms total)
T1270 002:334 JLINK_IsHalted() -- CPU_ReadMem(2 bytes @ 0x20000000)  returns TRUE (0007ms, 1645ms total)
T1270 002:341 JLINK_ReadReg(R15)  returns 0x20000000 (0000ms, 1645ms total)
T1270 002:341 JLINK_ClrBPEx(BPHandle = 0x0000000C)  returns 0x00 (0000ms, 1645ms total)
T1270 002:341 JLINK_ReadReg(R0)  returns 0x00000000 (0000ms, 1645ms total)
T1270 002:342 JLINK_WriteMem(0x20000164, 0x0400 Bytes, ...) -- Data:  1C DA 49 42 88 42 19 DD 61 68 08 44 D4 E7 E8 79 ... -- CPU_WriteMem(1024 bytes @ 0x20000164)  returns 0x400 (0012ms, 1645ms total)
T1270 002:354 JLINK_WriteReg(R0, 0x08002000)  returns 0x00 (0000ms, 1657ms total)
T1270 002:355 JLINK_WriteReg(R1, 0x00000400)  returns 0x00 (0000ms, 1657ms total)
T1270 002:355 JLINK_WriteReg(R2, 0x20000164)  returns 0x00 (0000ms, 1657ms total)
T1270 002:355 JLINK_WriteReg(R3, 0x00000000)  returns 0x00 (0000ms, 1657ms total)
T1270 002:355 JLINK_WriteReg(R4, 0x00000000)  returns 0x00 (0000ms, 1657ms total)
T1270 002:355 JLINK_WriteReg(R5, 0x00000000)  returns 0x00 (0000ms, 1657ms total)
T1270 002:355 JLINK_WriteReg(R6, 0x00000000)  returns 0x00 (0000ms, 1657ms total)
T1270 002:355 JLINK_WriteReg(R7, 0x00000000)  returns 0x00 (0000ms, 1657ms total)
T1270 002:355 JLINK_WriteReg(R8, 0x00000000)  returns 0x00 (0000ms, 1657ms total)
T1270 002:355 JLINK_WriteReg(R9, 0x20000160)  returns 0x00 (0000ms, 1657ms total)
T1270 002:355 JLINK_WriteReg(R10, 0x00000000)  returns 0x00 (0000ms, 1657ms total)
T1270 002:355 JLINK_WriteReg(R11, 0x00000000)  returns 0x00 (0000ms, 1657ms total)
T1270 002:355 JLINK_WriteReg(R12, 0x00000000)  returns 0x00 (0000ms, 1657ms total)
T1270 002:355 JLINK_WriteReg(R13, 0x20000800)  returns 0x00 (0000ms, 1657ms total)
T1270 002:355 JLINK_WriteReg(R14, 0x20000001)  returns 0x00 (0000ms, 1657ms total)
T1270 002:355 JLINK_WriteReg(R15, 0x200000F4)  returns 0x00 (0000ms, 1657ms total)
T1270 002:355 JLINK_WriteReg(XPSR, 0x01000000)  returns 0x00 (0000ms, 1657ms total)
T1270 002:355 JLINK_WriteReg(MSP, 0x20000800)  returns 0x00 (0000ms, 1657ms total)
T1270 002:355 JLINK_WriteReg(PSP, 0x20000800)  returns 0x00 (0000ms, 1657ms total)
T1270 002:355 JLINK_WriteReg(BASEPRI, 0x00000000)  returns 0x00 (0000ms, 1657ms total)
T1270 002:355 JLINK_WriteReg(CONTROL, 0x00000000)  returns 0x00 (0001ms, 1657ms total)
T1270 002:356 JLINK_WriteReg(FAULTMASK, 0x00000000)  returns 0x00 (0000ms, 1658ms total)
T1270 002:356 JLINK_WriteReg(BASEPRI_MAX, 0x00000000)  returns 0x00 (0000ms, 1658ms total)
T1270 002:356 JLINK_SetBPEx(Addr = 0x20000000, Type = 0xFFFFFFF2)  returns 0x0000000D (0000ms, 1658ms total)
T1270 002:356 JLINK_Go() -- CPU_WriteMem(4 bytes @ 0xE0002008) -- CPU_WriteMem(4 bytes @ 0xE000200C) -- CPU_WriteMem(4 bytes @ 0xE0002010) -- CPU_WriteMem(4 bytes @ 0xE0002014) -- CPU_WriteMem(4 bytes @ 0xE0002018) -- CPU_WriteMem(4 bytes @ 0xE000201C) (0009ms, 1658ms total)
T1270 002:365 JLINK_IsHalted()  returns FALSE (0001ms, 1667ms total)
T1270 002:416 JLINK_IsHalted() -- CPU_ReadMem(2 bytes @ 0x20000000)  returns TRUE (0007ms, 1667ms total)
T1270 002:423 JLINK_ReadReg(R15)  returns 0x20000000 (0000ms, 1667ms total)
T1270 002:423 JLINK_ClrBPEx(BPHandle = 0x0000000D)  returns 0x00 (0001ms, 1667ms total)
T1270 002:424 JLINK_ReadReg(R0)  returns 0x00000000 (0000ms, 1668ms total)
T1270 002:425 JLINK_WriteMem(0x20000164, 0x0400 Bytes, ...) -- Data:  7A 2C 02 D9 00 24 10 35 ED B2 3A 2D 03 D9 00 24 ... -- CPU_WriteMem(1024 bytes @ 0x20000164)  returns 0x400 (0011ms, 1668ms total)
T1270 002:436 JLINK_WriteReg(R0, 0x08002400)  returns 0x00 (0000ms, 1679ms total)
T1270 002:436 JLINK_WriteReg(R1, 0x00000400)  returns 0x00 (0000ms, 1679ms total)
T1270 002:436 JLINK_WriteReg(R2, 0x20000164)  returns 0x00 (0001ms, 1679ms total)
T1270 002:437 JLINK_WriteReg(R3, 0x00000000)  returns 0x00 (0000ms, 1680ms total)
T1270 002:437 JLINK_WriteReg(R4, 0x00000000)  returns 0x00 (0000ms, 1680ms total)
T1270 002:437 JLINK_WriteReg(R5, 0x00000000)  returns 0x00 (0000ms, 1680ms total)
T1270 002:437 JLINK_WriteReg(R6, 0x00000000)  returns 0x00 (0000ms, 1680ms total)
T1270 002:437 JLINK_WriteReg(R7, 0x00000000)  returns 0x00 (0000ms, 1680ms total)
T1270 002:437 JLINK_WriteReg(R8, 0x00000000)  returns 0x00 (0000ms, 1680ms total)
T1270 002:437 JLINK_WriteReg(R9, 0x20000160)  returns 0x00 (0000ms, 1680ms total)
T1270 002:437 JLINK_WriteReg(R10, 0x00000000)  returns 0x00 (0000ms, 1680ms total)
T1270 002:437 JLINK_WriteReg(R11, 0x00000000)  returns 0x00 (0000ms, 1680ms total)
T1270 002:437 JLINK_WriteReg(R12, 0x00000000)  returns 0x00 (0000ms, 1680ms total)
T1270 002:437 JLINK_WriteReg(R13, 0x20000800)  returns 0x00 (0000ms, 1680ms total)
T1270 002:437 JLINK_WriteReg(R14, 0x20000001)  returns 0x00 (0000ms, 1680ms total)
T1270 002:437 JLINK_WriteReg(R15, 0x200000F4)  returns 0x00 (0000ms, 1680ms total)
T1270 002:437 JLINK_WriteReg(XPSR, 0x01000000)  returns 0x00 (0000ms, 1680ms total)
T1270 002:437 JLINK_WriteReg(MSP, 0x20000800)  returns 0x00 (0000ms, 1680ms total)
T1270 002:437 JLINK_WriteReg(PSP, 0x20000800)  returns 0x00 (0000ms, 1680ms total)
T1270 002:437 JLINK_WriteReg(BASEPRI, 0x00000000)  returns 0x00 (0000ms, 1680ms total)
T1270 002:437 JLINK_WriteReg(CONTROL, 0x00000000)  returns 0x00 (0000ms, 1680ms total)
T1270 002:437 JLINK_WriteReg(FAULTMASK, 0x00000000)  returns 0x00 (0000ms, 1680ms total)
T1270 002:438 JLINK_WriteReg(BASEPRI_MAX, 0x00000000)  returns 0x00 (0000ms, 1680ms total)
T1270 002:438 JLINK_SetBPEx(Addr = 0x20000000, Type = 0xFFFFFFF2)  returns 0x0000000E (0000ms, 1680ms total)
T1270 002:438 JLINK_Go() -- CPU_WriteMem(4 bytes @ 0xE0002008) -- CPU_WriteMem(4 bytes @ 0xE000200C) -- CPU_WriteMem(4 bytes @ 0xE0002010) -- CPU_WriteMem(4 bytes @ 0xE0002014) -- CPU_WriteMem(4 bytes @ 0xE0002018) -- CPU_WriteMem(4 bytes @ 0xE000201C) (0009ms, 1680ms total)
T1270 002:447 JLINK_IsHalted()  returns FALSE (0001ms, 1689ms total)
T1270 002:498 JLINK_IsHalted() -- CPU_ReadMem(2 bytes @ 0x20000000)  returns TRUE (0007ms, 1689ms total)
T1270 002:505 JLINK_ReadReg(R15)  returns 0x20000000 (0000ms, 1689ms total)
T1270 002:505 JLINK_ClrBPEx(BPHandle = 0x0000000E)  returns 0x00 (0001ms, 1689ms total)
T1270 002:506 JLINK_ReadReg(R0)  returns 0x00000000 (0000ms, 1690ms total)
T1270 002:507 JLINK_WriteMem(0x20000164, 0x0400 Bytes, ...) -- Data:  56 E1 01 21 C1 71 D0 E9 16 12 01 64 00 20 88 49 ... -- CPU_WriteMem(1024 bytes @ 0x20000164)  returns 0x400 (0011ms, 1690ms total)
T1270 002:518 JLINK_WriteReg(R0, 0x08002800)  returns 0x00 (0000ms, 1701ms total)
T1270 002:518 JLINK_WriteReg(R1, 0x00000400)  returns 0x00 (0001ms, 1701ms total)
T1270 002:519 JLINK_WriteReg(R2, 0x20000164)  returns 0x00 (0000ms, 1702ms total)
T1270 002:519 JLINK_WriteReg(R3, 0x00000000)  returns 0x00 (0000ms, 1702ms total)
T1270 002:519 JLINK_WriteReg(R4, 0x00000000)  returns 0x00 (0000ms, 1702ms total)
T1270 002:519 JLINK_WriteReg(R5, 0x00000000)  returns 0x00 (0000ms, 1702ms total)
T1270 002:519 JLINK_WriteReg(R6, 0x00000000)  returns 0x00 (0000ms, 1702ms total)
T1270 002:519 JLINK_WriteReg(R7, 0x00000000)  returns 0x00 (0000ms, 1702ms total)
T1270 002:519 JLINK_WriteReg(R8, 0x00000000)  returns 0x00 (0000ms, 1702ms total)
T1270 002:519 JLINK_WriteReg(R9, 0x20000160)  returns 0x00 (0000ms, 1702ms total)
T1270 002:519 JLINK_WriteReg(R10, 0x00000000)  returns 0x00 (0000ms, 1702ms total)
T1270 002:519 JLINK_WriteReg(R11, 0x00000000)  returns 0x00 (0000ms, 1702ms total)
T1270 002:519 JLINK_WriteReg(R12, 0x00000000)  returns 0x00 (0000ms, 1702ms total)
T1270 002:519 JLINK_WriteReg(R13, 0x20000800)  returns 0x00 (0000ms, 1702ms total)
T1270 002:519 JLINK_WriteReg(R14, 0x20000001)  returns 0x00 (0000ms, 1702ms total)
T1270 002:519 JLINK_WriteReg(R15, 0x200000F4)  returns 0x00 (0000ms, 1702ms total)
T1270 002:519 JLINK_WriteReg(XPSR, 0x01000000)  returns 0x00 (0000ms, 1702ms total)
T1270 002:519 JLINK_WriteReg(MSP, 0x20000800)  returns 0x00 (0000ms, 1702ms total)
T1270 002:520 JLINK_WriteReg(PSP, 0x20000800)  returns 0x00 (0000ms, 1702ms total)
T1270 002:520 JLINK_WriteReg(BASEPRI, 0x00000000)  returns 0x00 (0000ms, 1702ms total)
T1270 002:520 JLINK_WriteReg(CONTROL, 0x00000000)  returns 0x00 (0000ms, 1702ms total)
T1270 002:520 JLINK_WriteReg(FAULTMASK, 0x00000000)  returns 0x00 (0000ms, 1702ms total)
T1270 002:520 JLINK_WriteReg(BASEPRI_MAX, 0x00000000)  returns 0x00 (0000ms, 1702ms total)
